<Qucs Dataset 0.0.19>
<indep time 11>
  +0.00000000000000000000e+00
  +1.00000000000000004792e-04
  +2.00000000000000009584e-04
  +3.00000000000000027929e-04
  +4.00000000000000019169e-04
  +5.00000000000000010408e-04
  +6.00000000000000055858e-04
  +6.99999999999999992888e-04
  +8.00000000000000038337e-04
  +9.00000000000000083787e-04
  +1.00000000000000002082e-03
</indep>
<dep Pr1.It time>
  +1.96300075260127678171e-13
  +1.96521142905788179466e-13
  +1.46420064642160101948e-02
  +1.46416063799793844807e-02
  +1.46402303630057753492e-02
  +1.46402299814302593733e-02
  +1.46402276269858074714e-02
  +5.33768093066487756495e-10
  +2.17289710004754331099e-10
  +1.78861073654393137883e-10
  +1.66501499734853025652e-10
</dep>
<dep V1.It time>
  -2.14286331364946463169e-11
  -2.14249455508542051034e-11
  -1.51785454184403811873e-02
  -1.54302423941952929903e-02
  -1.54287816005331708535e-02
  -1.54287812190098926057e-02
  -1.54287161702048800094e-02
  -6.70447468883270179803e-07
  -2.16938539774884695664e-07
  -1.16457020617286802714e-07
  -7.56054851216631341351e-08
</dep>
<dep _net1.Vt time>
  +1.68929176397933145104e-01
  +1.68929176248905577040e-01
  -4.47661343577459569509e-01
  +6.74584802196842803212e-01
  +6.74916263708182917469e-01
  +6.74916263719927078668e-01
  +6.74911272902238179583e-01
  +4.48470880819294814845e-01
  +4.19352754373936931209e-01
  +4.03286606842592709743e-01
  +3.92120954326590109851e-01
</dep>
<dep Vm.Vt time>
  +3.69999982145333206063e+00
  +3.69999982148675377047e+00
  +0.00000000000000000000e+00
  +1.34539943358777196701e-04
  +5.03263119867228118400e-04
  +5.03263131716345400377e-04
  +5.03929902205526398726e-04
  +3.69328962987670728069e+00
  +3.69783089265633391207e+00
  +3.69883643024034558522e+00
  +3.69924515827426780845e+00
</dep>
<dep _net0.Vt time>
  +3.53340165485492764194e-11
  +3.53738057230418714961e-11
  +2.63556116355888203628e+00
  +2.63548914839628922735e+00
  +2.63524146534103964612e+00
  +2.63524139665744661087e+00
  +2.63524097285744529628e+00
  +9.60782567519677899652e-08
  +3.91121478008557784604e-08
  +3.21949932577907643019e-08
  +2.99702699522735478226e-08
</dep>
<dep _net6.Vt time>
  +3.69999981869286775904e+00
  +3.69999981871527516830e+00
  +2.99770110137331213807e+00
  +2.99770217102385405639e+00
  +2.99770580778713613412e+00
  +2.99770580878653580825e+00
  +2.99770581501265453994e+00
  +3.69326935174147807928e+00
  +3.69782742288725296831e+00
  +3.69883495220391367297e+00
  +3.69924428533132099162e+00
</dep>
<dep _net4.Vt time>
  +3.70000000000000017764e+00
  +3.70000000000000017764e+00
  +3.70000000000000017764e+00
  +3.70000000000000017764e+00
  +3.70000000000000017764e+00
  +3.70000000000000017764e+00
  +3.70000000000000017764e+00
  +3.70000000000000017764e+00
  +3.70000000000000017764e+00
  +3.70000000000000017764e+00
  +3.70000000000000017764e+00
</dep>
<dep _net5.Vt time>
  +3.69999982145333206063e+00
  +3.69999982148675377047e+00
  +0.00000000000000000000e+00
  +0.00000000000000000000e+00
  +0.00000000000000000000e+00
  +0.00000000000000000000e+00
  +0.00000000000000000000e+00
  +0.00000000000000000000e+00
  +0.00000000000000000000e+00
  +0.00000000000000000000e+00
  +0.00000000000000000000e+00
</dep>
<dep _net3.Vt time>
  +1.68929218770782513248e-01
  +1.68929218621754945184e-01
  -4.47661293805530824397e-01
  +3.70000000000000017764e+00
  +3.70000000000000017764e+00
  +3.70000000000000017764e+00
  +3.70000000000000017764e+00
  +3.70000000000000017764e+00
  +3.70000000000000017764e+00
  +3.70000000000000017764e+00
  +3.70000000000000017764e+00
</dep>
<dep _net2.Vt time>
  +1.68929218770782513248e-01
  +1.68929218621754945184e-01
  -4.47661293805530824397e-01
  +3.70000000000000017764e+00
  +3.70000000000000017764e+00
  +3.70000000000000017764e+00
  +3.69924391734294522038e+00
  +4.48470919837643755557e-01
  +4.19352793741703422370e-01
  +4.03286646403152926332e-01
  +3.92120994021138202790e-01
</dep>
<dep Vav.Vt time>
  +3.53340165485492764194e-11
  +3.53738057230418714961e-11
  +2.63556116355888203628e+00
  +2.63548914839628922735e+00
  +2.63524146534103964612e+00
  +2.63524139665744661087e+00
  +2.63524097285744529628e+00
  +9.60782567519677899652e-08
  +3.91121478008557784604e-08
  +3.21949932577907643019e-08
  +2.99702699522735478226e-08
</dep>
